
T2210 000:309 SEGGER J-Link V5.02c Log File (0001ms, 0271ms total)
T2210 000:309 DLL Compiled: Sep 10 2015 17:39:31 (0001ms, 0271ms total)
T2210 000:309 Logging started @ 2018-05-12 17:16 (0001ms, 0271ms total)
T2210 000:310 JLINK_SetWarnOutHandler(...) (0000ms, 0271ms total)
T2210 000:310 JLINK_OpenEx(...)
Firmware: J-Link V9 compiled Jun  2 2222 22:22:22
Hardware: V9.40
S/N: 59401308
Feature(s): GDB, RDI, FlashBP, FlashDL, JFlash, RDDI  returns O.K. (0269ms, 0540ms total)
T2210 000:579 JLINK_SetErrorOutHandler(...) (0000ms, 0540ms total)
T2210 000:579 JLINK_ExecCommand("ProjectFile = "D:\work\Rabbit\crio\soft\TuRio\Project\JLinkSettings.ini"", ...)  returns 0x00 (0000ms, 0540ms total)
T2210 000:579 JLINK_ExecCommand("Device = STM32F103RC", ...)Device "STM32F103RC" selected.  returns 0x00 (0001ms, 0541ms total)
T2210 000:580 JLINK_ExecCommand("DisableConnectionTimeout", ...)  returns 0x01 (0000ms, 0541ms total)
T2210 000:580 JLINK_GetHardwareVersion()  returns 0x16F30 (0000ms, 0541ms total)
T2210 000:580 JLINK_GetDLLVersion()  returns 50203 (0000ms, 0541ms total)
T2210 000:580 JLINK_GetFirmwareString(...) (0000ms, 0541ms total)
T2210 000:580 JLINK_GetDLLVersion()  returns 50203 (0000ms, 0541ms total)
T2210 000:580 JLINK_GetCompileDateTime() (0000ms, 0541ms total)
T2210 000:580 JLINK_GetFirmwareString(...) (0000ms, 0541ms total)
T2210 000:580 JLINK_GetHardwareVersion()  returns 0x16F30 (0000ms, 0541ms total)
T2210 000:580 JLINK_TIF_Select(JLINKARM_TIF_SWD)  returns 0x00 (0001ms, 0542ms total)
T2210 000:581 JLINK_SetSpeed(5000) (0000ms, 0542ms total)
T2210 000:581 JLINK_GetId() >0x108 TIF>Found SWD-DP with ID 0x1BA01477 >0x0D TIF> >0x28 TIF> >0x0D TIF> >0x28 TIF> >0x0D TIF> >0x21 TIF> >0x0D TIF> >0x28 TIF> >0x0D TIF> >0x28 TIF> >0x0D TIF> >0x28 TIF> >0x0D TIF> >0x21 TIF> >0x0D TIF> >0x21 TIF> >0x0D TIF> >0x28 TIF> >0x0D TIF> >0x21 TIF> >0x0D TIF> >0x21 TIF> >0x0D TIF> >0x28 TIF> >0x0D TIF> >0x21 TIF> >0x0D TIF> >0x21 TIF> >0x108 TIF>Found SWD-DP with ID 0x1BA01477 >0x0D TIF> >0x21 TIF> >0x0D TIF> >0x28 TIF> >0x0D TIF> >0x28 TIF> >0x0D TIF> >0x21 TIF>
 >0x0D TIF> >0x28 TIF> >0x0D TIF> >0x21 TIF> >0x0D TIF> >0x21 TIF> >0x0D TIF> >0x21 TIF> >0x0D TIF> >0x21 TIF> >0x0D TIF> >0x28 TIF> >0x0D TIF> >0x28 TIF> >0x0D TIF> >0x21 TIF> >0x0D TIF> >0x28 TIF> >0x0D TIF> >0x28 TIF> >0x0D TIF> >0x28 TIF> >0x0D TIF> >0x21 TIF> >0x0D TIF> >0x21 TIF> >0x0D TIF> >0x28 TIF> >0x0D TIF> >0x21 TIF> >0x0D TIF> >0x21 TIF>Found Cortex-M3 r1p1, Little endian. -- CPU_ReadMem(4 bytes @ 0xE000EDF0) -- CPU_ReadMem(4 bytes @ 0xE0002000)FPUnit: 6 code (BP) slots and 2 literal slots
 -- CPU_ReadMem(4 bytes @ 0xE000EDFC) -- CPU_ReadMem(4 bytes @ 0xE0001000) -- CPU_WriteMem(4 bytes @ 0xE0001000) -- CPU_ReadMem(4 bytes @ 0xE000ED88) -- CPU_WriteMem(4 bytes @ 0xE000ED88) -- CPU_ReadMem(4 bytes @ 0xE000ED88) -- CPU_WriteMem(4 bytes @ 0xE000ED88)CoreSight components:ROMTbl 0 @ E00FF000 -- CPU_ReadMem(16 bytes @ 0xE00FF000) -- CPU_ReadMem(16 bytes @ 0xE000EFF0) -- CPU_ReadMem(16 bytes @ 0xE000EFE0)ROMTbl 0 [0]: FFF0F000, CID: B105E00D, PID: 001BB000 SCS
 -- CPU_ReadMem(16 bytes @ 0xE0001FF0) -- CPU_ReadMem(16 bytes @ 0xE0001FE0)ROMTbl 0 [1]: FFF02000, CID: B105E00D, PID: 001BB002 DWT -- CPU_ReadMem(16 bytes @ 0xE0002FF0) -- CPU_ReadMem(16 bytes @ 0xE0002FE0)ROMTbl 0 [2]: FFF03000, CID: B105E00D, PID: 000BB003 FPB -- CPU_ReadMem(16 bytes @ 0xE0000FF0) -- CPU_ReadMem(16 bytes @ 0xE0000FE0)ROMTbl 0 [3]: FFF01000, CID: B105E00D, PID: 001BB001 ITM -- CPU_ReadMem(16 bytes @ 0xE00FF010) -- CPU_ReadMem(16 bytes @ 0xE0040FF0)
 -- CPU_ReadMem(16 bytes @ 0xE0040FE0)ROMTbl 0 [4]: FFF41000, CID: B105900D, PID: 001BB923 TPIU-Lite -- CPU_ReadMem(16 bytes @ 0xE0041FF0) -- CPU_ReadMem(16 bytes @ 0xE0041FE0)ROMTbl 0 [5]: FFF42000, CID: B105900D, PID: 101BB924 ETM-M3 >0x0D TIF> >0x21 TIF>  returns 0x1BA01477 (0037ms, 0579ms total)
T2210 000:618 JLINK_GetDLLVersion()  returns 50203 (0000ms, 0579ms total)
T2210 000:618 JLINK_CORE_GetFound()  returns 0x30000FF (0000ms, 0579ms total)
T2210 000:618 JLINK_GetDebugInfo(0x100) -- Value=0xE00FF003  returns 0x00 (0000ms, 0579ms total)
T2210 000:618 JLINK_GetDebugInfo(0x100) -- Value=0xE00FF003  returns 0x00 (0000ms, 0579ms total)
T2210 000:618 JLINK_GetDebugInfo(0x101)  returns 0xFFFFFFFF (0000ms, 0579ms total)
T2210 000:618 JLINK_ReadMem (0xE0041FF0, 0x0010 Bytes, ...) -- CPU is running -- CPU_ReadMem(16 bytes @ 0xE0041FF0) - Data: 0D 00 00 00 90 00 00 00 05 00 00 00 B1 00 00 00  returns 0x00 (0000ms, 0579ms total)
T2210 000:618 JLINK_GetDebugInfo(0x102)  returns 0xFFFFFFFF (0000ms, 0579ms total)
T2210 000:618 JLINK_GetDebugInfo(0x103)  returns 0xFFFFFFFF (0000ms, 0579ms total)
T2210 000:618 JLINK_ReadMem (0xE0040FF0, 0x0010 Bytes, ...) -- CPU is running -- CPU_ReadMem(16 bytes @ 0xE0040FF0) - Data: 0D 00 00 00 90 00 00 00 05 00 00 00 B1 00 00 00  returns 0x00 (0001ms, 0580ms total)
T2210 000:619 JLINK_GetDebugInfo(0x104)  returns 0xFFFFFFFF (0000ms, 0580ms total)
T2210 000:619 JLINK_GetDebugInfo(0x105)  returns 0xFFFFFFFF (0000ms, 0580ms total)
T2210 000:619 JLINK_GetDebugInfo(0x106)  returns 0xFFFFFFFF (0000ms, 0580ms total)
T2210 000:619 JLINK_GetDebugInfo(0x107)  returns 0xFFFFFFFF (0000ms, 0580ms total)
T2210 000:619 JLINK_GetDebugInfo(0x10C)  returns 0xFFFFFFFF (0000ms, 0580ms total)
T2210 000:619 JLINK_ReadMemU32(0xE000ED00, 0x0001 Items, ...) -- CPU is running -- CPU_ReadMem(4 bytes @ 0xE000ED00) - Data: 31 C2 1F 41  returns 0x01 (0000ms, 0580ms total)
T2210 000:619 JLINK_SetResetType(JLINKARM_RESET_TYPE_NORMAL)  returns JLINKARM_RESET_TYPE_NORMAL (0000ms, 0580ms total)
T2210 000:619 JLINK_Reset() -- CPU is running -- CPU_WriteMem(4 bytes @ 0xE000EDF0) -- CPU is running -- CPU_WriteMem(4 bytes @ 0xE000EDFC) >0x35 TIF> -- CPU is running -- CPU_WriteMem(4 bytes @ 0xE000ED0C) -- CPU is running -- CPU_ReadMem(4 bytes @ 0xE000EDF0) -- CPU is running -- CPU_ReadMem(4 bytes @ 0xE000EDF0) -- CPU is running -- CPU_WriteMem(4 bytes @ 0xE000EDF0) -- CPU is running -- CPU_WriteMem(4 bytes @ 0xE000EDFC) -- CPU is running -- CPU_ReadMem(4 bytes @ 0xE000EDF0)
 -- CPU_WriteMem(4 bytes @ 0xE0002000) -- CPU_ReadMem(4 bytes @ 0xE000EDFC) -- CPU_ReadMem(4 bytes @ 0xE0001000) (0016ms, 0596ms total)
T2210 000:635 JLINK_ReadReg(R15 (PC))  returns 0x080001CC (0000ms, 0596ms total)
T2210 000:635 JLINK_ReadReg(XPSR)  returns 0x01000000 (0000ms, 0596ms total)
T2210 000:635 JLINK_Halt()  returns 0x00 (0000ms, 0596ms total)
T2210 000:635 JLINK_IsHalted()  returns TRUE (0000ms, 0596ms total)
T2210 000:635 JLINK_ReadMemU32(0xE000EDF0, 0x0001 Items, ...) -- CPU_ReadMem(4 bytes @ 0xE000EDF0) - Data: 03 00 03 00  returns 0x01 (0001ms, 0597ms total)
T2210 000:636 JLINK_WriteU32(0xE000EDF0, 0xA05F0003) -- CPU_WriteMem(4 bytes @ 0xE000EDF0)  returns 0x00 (0000ms, 0597ms total)
T2210 000:636 JLINK_WriteU32(0xE000EDFC, 0x01000000) -- CPU_WriteMem(4 bytes @ 0xE000EDFC)  returns 0x00 (0001ms, 0598ms total)
T2210 000:637 JLINK_GetHWStatus(...)  returns 0x00 (0000ms, 0598ms total)
T2210 000:637 JLINK_GetNumBPUnits(Type = 0xFFFFFF00)  returns 0x06 (0000ms, 0598ms total)
T2210 000:637 JLINK_GetNumBPUnits(Type = 0xF0)  returns 0x2000 (0000ms, 0598ms total)
T2210 000:637 JLINK_GetNumWPUnits()  returns 0x04 (0000ms, 0598ms total)
T2210 000:637 JLINK_GetSpeed()  returns 0xFA0 (0000ms, 0598ms total)
T2210 000:637 JLINK_ReadMemU32(0xE000E004, 0x0001 Items, ...) -- CPU_ReadMem(4 bytes @ 0xE000E004) - Data: 01 00 00 00  returns 0x01 (0000ms, 0598ms total)
T2210 000:637 JLINK_ReadMemU32(0xE000E004, 0x0001 Items, ...) -- CPU_ReadMem(4 bytes @ 0xE000E004) - Data: 01 00 00 00  returns 0x01 (0001ms, 0599ms total)
T2210 000:638 JLINK_WriteMem(0xE0001000, 0x001C Bytes, ...) - Data: 01 00 00 00 00 00 00 00 00 00 00 00 00 00 00 00 ... -- CPU_WriteMem(28 bytes @ 0xE0001000)  returns 0x1C (0001ms, 0600ms total)
T2210 000:639 JLINK_ReadMem (0xE0001000, 0x001C Bytes, ...) -- CPU_ReadMem(28 bytes @ 0xE0001000) - Data: 01 00 00 40 00 00 00 00 00 00 00 00 00 00 00 00 ...  returns 0x00 (0000ms, 0600ms total)
T2210 000:639 JLINK_ReadReg(R15 (PC))  returns 0x080001CC (0000ms, 0600ms total)
T2210 000:639 JLINK_ReadReg(XPSR)  returns 0x01000000 (0000ms, 0600ms total)
T2210 000:714 JLINK_SetResetType(JLINKARM_RESET_TYPE_NORMAL)  returns JLINKARM_RESET_TYPE_NORMAL (0000ms, 0600ms total)
T2210 000:714 JLINK_Reset() -- CPU_WriteMem(4 bytes @ 0xE000EDF0) -- CPU_WriteMem(4 bytes @ 0xE000EDFC) >0x35 TIF> -- CPU_WriteMem(4 bytes @ 0xE000ED0C) -- CPU_ReadMem(4 bytes @ 0xE000EDF0) -- CPU_ReadMem(4 bytes @ 0xE000EDF0) -- CPU_WriteMem(4 bytes @ 0xE000EDF0) -- CPU_WriteMem(4 bytes @ 0xE000EDFC) -- CPU is running -- CPU_ReadMem(4 bytes @ 0xE000EDF0) -- CPU_WriteMem(4 bytes @ 0xE0002000) -- CPU_ReadMem(4 bytes @ 0xE000EDFC) -- CPU_ReadMem(4 bytes @ 0xE0001000) (0016ms, 0616ms total)
T2210 000:730 JLINK_ReadReg(R15 (PC))  returns 0x080001CC (0000ms, 0616ms total)
T2210 000:730 JLINK_ReadReg(XPSR)  returns 0x01000000 (0000ms, 0616ms total)
T2210 000:731 JLINK_ReadMem (0x080001CC, 0x003C Bytes, ...) -- CPU_ReadMem(128 bytes @ 0x080001C0) -- Updating C cache (128 bytes @ 0x080001C0) -- Read from C cache (60 bytes @ 0x080001CC) - Data: 09 48 80 47 09 48 00 47 FE E7 FE E7 FE E7 FE E7 ...  returns 0x00 (0001ms, 0617ms total)
T2210 000:869 JLINK_ReadMem (0x40000000, 0x0010 Bytes, ...) -- CPU_ReadMem(16 bytes @ 0x40000000) - Data: 00 00 00 00 00 00 00 00 00 00 00 00 00 00 00 00  returns 0x00 (0001ms, 0618ms total)
T2210 000:870 JLINK_ReadMem (0x40000010, 0x0004 Bytes, ...) -- CPU_ReadMem(4 bytes @ 0x40000010) - Data: 00 00 00 00  returns 0x00 (0001ms, 0619ms total)
T2210 000:871 JLINK_ReadMem (0x40000018, 0x0014 Bytes, ...) -- CPU_ReadMem(20 bytes @ 0x40000018) - Data: 00 00 00 00 00 00 00 00 00 00 00 00 00 00 00 00 ...  returns 0x00 (0000ms, 0619ms total)
T2210 000:871 JLINK_ReadMem (0x4000002C, 0x0004 Bytes, ...) -- CPU_ReadMem(4 bytes @ 0x4000002C) - Data: 00 00 00 00  returns 0x00 (0001ms, 0620ms total)
T2210 000:872 JLINK_ReadMem (0x40000034, 0x000C Bytes, ...) -- CPU_ReadMem(12 bytes @ 0x40000034) - Data: 00 00 00 00 00 00 00 00 00 00 00 00  returns 0x00 (0000ms, 0620ms total)
T2210 000:872 JLINK_ReadMem (0x40000040, 0x0004 Bytes, ...) -- CPU_ReadMem(4 bytes @ 0x40000040) - Data: 00 00 00 00  returns 0x00 (0001ms, 0621ms total)
T2210 000:873 JLINK_ReadMem (0x40000048, 0x0004 Bytes, ...) -- CPU_ReadMem(4 bytes @ 0x40000048) - Data: 00 00 00 00  returns 0x00 (0000ms, 0621ms total)
T2210 000:873 JLINK_ReadMem (0x4000004C, 0x0004 Bytes, ...) -- CPU_ReadMem(4 bytes @ 0x4000004C) - Data: 00 00 00 00  returns 0x00 (0000ms, 0621ms total)
T2210 002:756 JLINK_ReadMem (0x2000069C, 0x0020 Bytes, ...) -- CPU_ReadMem(64 bytes @ 0x20000680) -- Updating C cache (64 bytes @ 0x20000680) -- Read from C cache (32 bytes @ 0x2000069C) - Data: 00 00 00 00 00 00 00 00 00 00 00 00 00 00 00 00 ...  returns 0x00 (0001ms, 0622ms total)
T2210 002:763 JLINK_ReadMem (0x20000AAC, 0x0020 Bytes, ...) -- CPU_ReadMem(128 bytes @ 0x20000A80) -- Updating C cache (128 bytes @ 0x20000A80) -- Read from C cache (32 bytes @ 0x20000AAC) - Data: 00 00 00 00 00 00 00 00 00 00 00 00 00 00 00 00 ...  returns 0x00 (0001ms, 0623ms total)
T0BC0 002:809 JLINK_SetBPEx(Addr = 0x08002250, Type = 0xFFFFFFF2)  returns 0x00000001 (0000ms, 0623ms total)
T0BC0 002:809 JLINK_Go() -- CPU_WriteMem(4 bytes @ 0xE0002000) -- CPU_ReadMem(4 bytes @ 0xE0001000) -- CPU_WriteMem(4 bytes @ 0xE0002008) -- CPU_WriteMem(4 bytes @ 0xE000200C) -- CPU_WriteMem(4 bytes @ 0xE0002010) -- CPU_WriteMem(4 bytes @ 0xE0002014) -- CPU_WriteMem(4 bytes @ 0xE0002018) -- CPU_WriteMem(4 bytes @ 0xE000201C) -- CPU_WriteMem(4 bytes @ 0xE0001004) (0004ms, 0627ms total)
T0BC0 002:915 JLINK_IsHalted()  returns TRUE (0002ms, 0629ms total)
T0BC0 002:917 JLINK_Halt()  returns 0x00 (0000ms, 0627ms total)
T0BC0 002:917 JLINK_IsHalted()  returns TRUE (0000ms, 0627ms total)
T0BC0 002:917 JLINK_IsHalted()  returns TRUE (0000ms, 0627ms total)
T0BC0 002:917 JLINK_IsHalted()  returns TRUE (0000ms, 0627ms total)
T0BC0 002:917 JLINK_ReadReg(R15 (PC))  returns 0x08002250 (0000ms, 0627ms total)
T0BC0 002:917 JLINK_ReadReg(XPSR)  returns 0x21000000 (0000ms, 0627ms total)
T0BC0 002:917 JLINK_ClrBPEx(BPHandle = 0x00000001)  returns 0x00 (0000ms, 0627ms total)
T0BC0 002:917 JLINK_ReadMemU32(0xE000ED30, 0x0001 Items, ...) -- CPU_ReadMem(4 bytes @ 0xE000ED30) - Data: 02 00 00 00  returns 0x01 (0000ms, 0627ms total)
T0BC0 002:917 JLINK_ReadMemU32(0xE0001028, 0x0001 Items, ...) -- CPU_ReadMem(4 bytes @ 0xE0001028) - Data: 00 00 00 00  returns 0x01 (0001ms, 0628ms total)
T0BC0 002:918 JLINK_ReadMemU32(0xE0001038, 0x0001 Items, ...) -- CPU_ReadMem(4 bytes @ 0xE0001038) - Data: 00 02 00 00  returns 0x01 (0000ms, 0628ms total)
T0BC0 002:918 JLINK_ReadMemU32(0xE0001048, 0x0001 Items, ...) -- CPU_ReadMem(4 bytes @ 0xE0001048) - Data: 00 00 00 00  returns 0x01 (0001ms, 0629ms total)
T0BC0 002:919 JLINK_ReadMemU32(0xE0001058, 0x0001 Items, ...) -- CPU_ReadMem(4 bytes @ 0xE0001058) - Data: 00 00 00 00  returns 0x01 (0000ms, 0629ms total)
T0BC0 002:919 JLINK_ReadReg(R0)  returns 0x200027F0 (0000ms, 0629ms total)
T0BC0 002:919 JLINK_ReadReg(R1)  returns 0x200029F0 (0000ms, 0629ms total)
T0BC0 002:919 JLINK_ReadReg(R2)  returns 0x200029F0 (0000ms, 0629ms total)
T0BC0 002:919 JLINK_ReadReg(R3)  returns 0x200029F0 (0000ms, 0629ms total)
T0BC0 002:919 JLINK_ReadReg(R4)  returns 0x00000000 (0000ms, 0629ms total)
T0BC0 002:919 JLINK_ReadReg(R5)  returns 0x20002790 (0000ms, 0629ms total)
T0BC0 002:919 JLINK_ReadReg(R6)  returns 0x00000000 (0000ms, 0629ms total)
T0BC0 002:919 JLINK_ReadReg(R7)  returns 0x00000000 (0000ms, 0629ms total)
T0BC0 002:919 JLINK_ReadReg(R8)  returns 0x00000000 (0000ms, 0629ms total)
T0BC0 002:919 JLINK_ReadReg(R9)  returns 0x20000160 (0000ms, 0629ms total)
T0BC0 002:919 JLINK_ReadReg(R10)  returns 0x08002D38 (0000ms, 0629ms total)
T0BC0 002:919 JLINK_ReadReg(R11)  returns 0x00000000 (0000ms, 0629ms total)
T0BC0 002:919 JLINK_ReadReg(R12)  returns 0x200027D0 (0000ms, 0629ms total)
T0BC0 002:919 JLINK_ReadReg(R13 (SP))  returns 0x20002DF0 (0000ms, 0629ms total)
T0BC0 002:919 JLINK_ReadReg(R14)  returns 0x080001BB (0000ms, 0629ms total)
T0BC0 002:919 JLINK_ReadReg(R15 (PC))  returns 0x08002250 (0000ms, 0629ms total)
T0BC0 002:919 JLINK_ReadReg(XPSR)  returns 0x21000000 (0000ms, 0629ms total)
T0BC0 002:919 JLINK_ReadReg(MSP)  returns 0x20002DF0 (0000ms, 0629ms total)
T0BC0 002:919 JLINK_ReadReg(PSP)  returns 0x20001000 (0000ms, 0629ms total)
T0BC0 002:919 JLINK_ReadReg(CFBP)  returns 0x00000000 (0000ms, 0629ms total)
T2210 002:920 JLINK_ReadMem (0x2000069C, 0x0020 Bytes, ...) -- CPU_ReadMem(64 bytes @ 0x20000680) -- Updating C cache (64 bytes @ 0x20000680) -- Read from C cache (32 bytes @ 0x2000069C) - Data: 00 00 00 00 00 00 00 00 00 00 00 00 00 00 00 00 ...  returns 0x00 (0001ms, 0630ms total)
T2210 002:921 JLINK_ReadMem (0x20000AAC, 0x0020 Bytes, ...) -- CPU_ReadMem(128 bytes @ 0x20000A80) -- Updating C cache (128 bytes @ 0x20000A80) -- Read from C cache (32 bytes @ 0x20000AAC) - Data: 00 00 00 00 00 00 00 00 00 00 00 00 00 00 00 00 ...  returns 0x00 (0001ms, 0631ms total)
T2210 002:922 JLINK_ReadMem (0x40000000, 0x0010 Bytes, ...) -- CPU_ReadMem(16 bytes @ 0x40000000) - Data: 00 00 00 00 00 00 00 00 00 00 00 00 00 00 00 00  returns 0x00 (0001ms, 0632ms total)
T2210 002:923 JLINK_ReadMem (0x40000010, 0x0004 Bytes, ...) -- CPU_ReadMem(4 bytes @ 0x40000010) - Data: 00 00 00 00  returns 0x00 (0000ms, 0632ms total)
T2210 002:923 JLINK_ReadMem (0x40000018, 0x0014 Bytes, ...) -- CPU_ReadMem(20 bytes @ 0x40000018) - Data: 00 00 00 00 00 00 00 00 00 00 00 00 00 00 00 00 ...  returns 0x00 (0001ms, 0633ms total)
T2210 002:924 JLINK_ReadMem (0x4000002C, 0x0004 Bytes, ...) -- CPU_ReadMem(4 bytes @ 0x4000002C) - Data: 00 00 00 00  returns 0x00 (0000ms, 0633ms total)
T2210 002:924 JLINK_ReadMem (0x40000034, 0x000C Bytes, ...) -- CPU_ReadMem(12 bytes @ 0x40000034) - Data: 00 00 00 00 00 00 00 00 00 00 00 00  returns 0x00 (0000ms, 0633ms total)
T2210 002:924 JLINK_ReadMem (0x40000040, 0x0004 Bytes, ...) -- CPU_ReadMem(4 bytes @ 0x40000040) - Data: 00 00 00 00  returns 0x00 (0001ms, 0634ms total)
T2210 002:925 JLINK_ReadMem (0x40000048, 0x0004 Bytes, ...) -- CPU_ReadMem(4 bytes @ 0x40000048) - Data: 00 00 00 00  returns 0x00 (0000ms, 0634ms total)
T2210 002:925 JLINK_ReadMem (0x4000004C, 0x0004 Bytes, ...) -- CPU_ReadMem(4 bytes @ 0x4000004C) - Data: 00 00 00 00  returns 0x00 (0001ms, 0635ms total)
T2210 002:929 JLINK_ReadMem (0x08002250, 0x003C Bytes, ...) -- CPU_ReadMem(128 bytes @ 0x08002240) -- Updating C cache (128 bytes @ 0x08002240) -- Read from C cache (60 bytes @ 0x08002250) - Data: 08 B5 00 25 00 24 00 F0 31 FB C0 20 5A 49 88 71 ...  returns 0x00 (0001ms, 0636ms total)
T0BC0 003:842 JLINK_Go() -- CPU_ReadMem(4 bytes @ 0xE0001000) -- CPU_WriteMem(4 bytes @ 0xE0002008) (0003ms, 0639ms total)
T0BC0 003:945 JLINK_IsHalted()  returns FALSE (0000ms, 0639ms total)
T0BC0 004:046 JLINK_IsHalted()  returns FALSE (0000ms, 0639ms total)
T0BC0 004:147 JLINK_IsHalted()  returns FALSE (0000ms, 0639ms total)
T0BC0 004:248 JLINK_IsHalted()  returns FALSE (0000ms, 0639ms total)
T0BC0 004:350 JLINK_ReadMemU32(0xE0001004, 0x0001 Items, ...) -- CPU is running -- CPU_ReadMem(4 bytes @ 0xE0001004) - Data: 13 08 2B 02  returns 0x01 (0000ms, 0639ms total)
T2210 004:352 JLINK_ReadMem (0x2000069C, 0x0020 Bytes, ...) -- CPU is running -- CPU_ReadMem(32 bytes @ 0x2000069C) - Data: 00 00 00 00 00 00 00 00 00 00 00 00 00 00 00 00 ...  returns 0x00 (0001ms, 0640ms total)
T2210 004:353 JLINK_ReadMem (0x20000AAC, 0x0020 Bytes, ...) -- CPU is running -- CPU_ReadMem(32 bytes @ 0x20000AAC) - Data: 00 00 00 00 00 00 00 00 00 00 00 00 00 00 00 00 ...  returns 0x00 (0001ms, 0641ms total)
T2210 004:354 JLINK_ReadMem (0x40000000, 0x0010 Bytes, ...) -- CPU is running -- CPU_ReadMem(16 bytes @ 0x40000000) - Data: 01 00 00 00 00 00 00 00 03 00 00 00 00 00 00 00  returns 0x00 (0000ms, 0641ms total)
T2210 004:354 JLINK_ReadMem (0x40000010, 0x0004 Bytes, ...) -- CPU is running -- CPU_ReadMem(4 bytes @ 0x40000010) - Data: 00 00 00 00  returns 0x00 (0001ms, 0642ms total)
T2210 004:355 JLINK_ReadMem (0x40000018, 0x0014 Bytes, ...) -- CPU is running -- CPU_ReadMem(20 bytes @ 0x40000018) - Data: 01 01 00 00 00 00 00 00 00 00 00 00 10 27 00 00 ...  returns 0x00 (0000ms, 0642ms total)
T2210 004:355 JLINK_ReadMem (0x4000002C, 0x0004 Bytes, ...) -- CPU is running -- CPU_ReadMem(4 bytes @ 0x4000002C) - Data: FE FF 00 00  returns 0x00 (0001ms, 0643ms total)
T2210 004:356 JLINK_ReadMem (0x40000034, 0x000C Bytes, ...) -- CPU is running -- CPU_ReadMem(12 bytes @ 0x40000034) - Data: 00 00 00 00 00 00 00 00 00 00 00 00  returns 0x00 (0000ms, 0643ms total)
T2210 004:356 JLINK_ReadMem (0x40000040, 0x0004 Bytes, ...) -- CPU is running -- CPU_ReadMem(4 bytes @ 0x40000040) - Data: 00 00 00 00  returns 0x00 (0001ms, 0644ms total)
T2210 004:357 JLINK_ReadMem (0x40000048, 0x0004 Bytes, ...) -- CPU is running -- CPU_ReadMem(4 bytes @ 0x40000048) - Data: 00 00 00 00  returns 0x00 (0000ms, 0644ms total)
T2210 004:357 JLINK_ReadMem (0x4000004C, 0x0004 Bytes, ...) -- CPU is running -- CPU_ReadMem(4 bytes @ 0x4000004C) - Data: 01 00 00 00  returns 0x00 (0001ms, 0645ms total)
T0BC0 004:387 JLINK_IsHalted()  returns FALSE (0000ms, 0645ms total)
T0BC0 004:488 JLINK_IsHalted()  returns FALSE (0000ms, 0645ms total)
T0BC0 004:589 JLINK_IsHalted()  returns FALSE (0000ms, 0645ms total)
T0BC0 004:690 JLINK_IsHalted()  returns FALSE (0000ms, 0645ms total)
T0BC0 004:791 JLINK_IsHalted()  returns FALSE (0000ms, 0645ms total)
T0BC0 004:892 JLINK_ReadMemU32(0xE0001004, 0x0001 Items, ...) -- CPU is running -- CPU_ReadMem(4 bytes @ 0xE0001004) - Data: BA C7 7F 04  returns 0x01 (0000ms, 0645ms total)
T2210 004:893 JLINK_ReadMem (0x2000069C, 0x0020 Bytes, ...) -- CPU is running -- CPU_ReadMem(32 bytes @ 0x2000069C) - Data: 00 00 00 00 00 00 00 00 00 00 00 00 00 00 00 00 ...  returns 0x00 (0000ms, 0646ms total)
T2210 004:893 JLINK_ReadMem (0x20000AAC, 0x0020 Bytes, ...) -- CPU is running -- CPU_ReadMem(32 bytes @ 0x20000AAC) - Data: 00 00 00 00 00 00 00 00 00 00 00 00 00 00 00 00 ...  returns 0x00 (0001ms, 0647ms total)
T2210 004:894 JLINK_ReadMem (0x40000000, 0x0010 Bytes, ...) -- CPU is running -- CPU_ReadMem(16 bytes @ 0x40000000) - Data: 01 00 00 00 00 00 00 00 03 00 00 00 00 00 00 00  returns 0x00 (0001ms, 0648ms total)
T2210 004:895 JLINK_ReadMem (0x40000010, 0x0004 Bytes, ...) -- CPU is running -- CPU_ReadMem(4 bytes @ 0x40000010) - Data: 00 00 00 00  returns 0x00 (0000ms, 0648ms total)
T2210 004:895 JLINK_ReadMem (0x40000018, 0x0014 Bytes, ...) -- CPU is running -- CPU_ReadMem(20 bytes @ 0x40000018) - Data: 01 01 00 00 00 00 00 00 00 00 00 00 10 27 00 00 ...  returns 0x00 (0001ms, 0649ms total)
T2210 004:896 JLINK_ReadMem (0x4000002C, 0x0004 Bytes, ...) -- CPU is running -- CPU_ReadMem(4 bytes @ 0x4000002C) - Data: FE FF 00 00  returns 0x00 (0000ms, 0649ms total)
T2210 004:896 JLINK_ReadMem (0x40000034, 0x000C Bytes, ...) -- CPU is running -- CPU_ReadMem(12 bytes @ 0x40000034) - Data: 00 00 00 00 00 00 00 00 00 00 00 00  returns 0x00 (0000ms, 0649ms total)
T2210 004:896 JLINK_ReadMem (0x40000040, 0x0004 Bytes, ...) -- CPU is running -- CPU_ReadMem(4 bytes @ 0x40000040) - Data: 00 00 00 00  returns 0x00 (0001ms, 0650ms total)
T2210 004:897 JLINK_ReadMem (0x40000048, 0x0004 Bytes, ...) -- CPU is running -- CPU_ReadMem(4 bytes @ 0x40000048) - Data: 00 00 00 00  returns 0x00 (0000ms, 0650ms total)
T2210 004:897 JLINK_ReadMem (0x4000004C, 0x0004 Bytes, ...) -- CPU is running -- CPU_ReadMem(4 bytes @ 0x4000004C) - Data: 01 00 00 00  returns 0x00 (0001ms, 0651ms total)
T0BC0 004:899 JLINK_IsHalted()  returns FALSE (0001ms, 0652ms total)
T0BC0 005:001 JLINK_IsHalted()  returns FALSE (0000ms, 0651ms total)
T2210 005:007 JLINK_ReadMem (0x08001B84, 0x0002 Bytes, ...) -- CPU is running -- CPU_ReadMem(2 bytes @ 0x08001B84) - Data: DD E9  returns 0x00 (0000ms, 0651ms total)
T2210 005:007 JLINK_ReadMem (0x08001B86, 0x0002 Bytes, ...) -- CPU is running -- CPU_ReadMem(2 bytes @ 0x08001B86) - Data: 02 54  returns 0x00 (0000ms, 0651ms total)
T2210 005:007 JLINK_ReadMem (0x08001B88, 0x0002 Bytes, ...) -- CPU is running -- CPU_ReadMem(2 bytes @ 0x08001B88) - Data: B4 FB  returns 0x00 (0001ms, 0652ms total)
T2210 005:008 JLINK_ReadMem (0x08001B8A, 0x0002 Bytes, ...) -- CPU is running -- CPU_ReadMem(2 bytes @ 0x08001B8A) - Data: F5 F4  returns 0x00 (0000ms, 0652ms total)
T2210 005:008 JLINK_ReadMem (0x08001B8C, 0x0002 Bytes, ...) -- CPU is running -- CPU_ReadMem(2 bytes @ 0x08001B8C) - Data: 42 F2  returns 0x00 (0001ms, 0653ms total)
T2210 005:009 JLINK_ReadMem (0x08001B8E, 0x0002 Bytes, ...) -- CPU is running -- CPU_ReadMem(2 bytes @ 0x08001B8E) - Data: 10 75  returns 0x00 (0000ms, 0653ms total)
T2210 005:009 JLINK_ReadMem (0x08001B90, 0x0002 Bytes, ...) -- CPU is running -- CPU_ReadMem(2 bytes @ 0x08001B90) - Data: 04 FB  returns 0x00 (0001ms, 0654ms total)
T2210 005:010 JLINK_ReadMem (0x08001B92, 0x0002 Bytes, ...) -- CPU is running -- CPU_ReadMem(2 bytes @ 0x08001B92) - Data: 05 F3  returns 0x00 (0000ms, 0654ms total)
T0BC0 005:102 JLINK_IsHalted()  returns FALSE (0000ms, 0654ms total)
T0BC0 005:203 JLINK_IsHalted()  returns FALSE (0000ms, 0654ms total)
T0BC0 005:304 JLINK_IsHalted()  returns FALSE (0000ms, 0654ms total)
T0BC0 005:406 JLINK_ReadMemU32(0xE0001004, 0x0001 Items, ...) -- CPU is running -- CPU_ReadMem(4 bytes @ 0xE0001004) - Data: 02 CD B3 06  returns 0x01 (0000ms, 0654ms total)
T2210 005:407 JLINK_ReadMem (0x2000069C, 0x0020 Bytes, ...) -- CPU is running -- CPU_ReadMem(32 bytes @ 0x2000069C) - Data: 00 00 00 00 00 00 00 00 00 00 00 00 00 00 00 00 ...  returns 0x00 (0000ms, 0654ms total)
T2210 005:407 JLINK_ReadMem (0x20000AAC, 0x0020 Bytes, ...) -- CPU is running -- CPU_ReadMem(32 bytes @ 0x20000AAC) - Data: 00 00 00 00 00 00 00 00 00 00 00 00 00 00 00 00 ...  returns 0x00 (0001ms, 0655ms total)
T2210 005:408 JLINK_ReadMem (0x40000000, 0x0010 Bytes, ...) -- CPU is running -- CPU_ReadMem(16 bytes @ 0x40000000) - Data: 01 00 00 00 00 00 00 00 03 00 00 00 00 00 00 00  returns 0x00 (0001ms, 0656ms total)
T2210 005:409 JLINK_ReadMem (0x40000010, 0x0004 Bytes, ...) -- CPU is running -- CPU_ReadMem(4 bytes @ 0x40000010) - Data: 00 00 00 00  returns 0x00 (0000ms, 0656ms total)
T2210 005:409 JLINK_ReadMem (0x40000018, 0x0014 Bytes, ...) -- CPU is running -- CPU_ReadMem(20 bytes @ 0x40000018) - Data: 01 01 00 00 00 00 00 00 00 00 00 00 10 27 00 00 ...  returns 0x00 (0001ms, 0657ms total)
T2210 005:410 JLINK_ReadMem (0x4000002C, 0x0004 Bytes, ...) -- CPU is running -- CPU_ReadMem(4 bytes @ 0x4000002C) - Data: FE FF 00 00  returns 0x00 (0000ms, 0657ms total)
T2210 005:410 JLINK_ReadMem (0x40000034, 0x000C Bytes, ...) -- CPU is running -- CPU_ReadMem(12 bytes @ 0x40000034) - Data: 00 00 00 00 00 00 00 00 00 00 00 00  returns 0x00 (0001ms, 0658ms total)
T2210 005:411 JLINK_ReadMem (0x40000040, 0x0004 Bytes, ...) -- CPU is running -- CPU_ReadMem(4 bytes @ 0x40000040) - Data: 00 00 00 00  returns 0x00 (0000ms, 0658ms total)
T2210 005:411 JLINK_ReadMem (0x40000048, 0x0004 Bytes, ...) -- CPU is running -- CPU_ReadMem(4 bytes @ 0x40000048) - Data: 00 00 00 00  returns 0x00 (0001ms, 0659ms total)
T2210 005:412 JLINK_ReadMem (0x4000004C, 0x0004 Bytes, ...) -- CPU is running -- CPU_ReadMem(4 bytes @ 0x4000004C) - Data: 01 00 00 00  returns 0x00 (0000ms, 0659ms total)
T0BC0 005:414 JLINK_IsHalted()  returns FALSE (0000ms, 0659ms total)
T0BC0 005:515 JLINK_IsHalted()  returns FALSE (0000ms, 0659ms total)
T0BC0 005:616 JLINK_IsHalted()  returns FALSE (0000ms, 0659ms total)
T0BC0 005:717 JLINK_IsHalted()  returns FALSE (0000ms, 0659ms total)
T0BC0 005:818 JLINK_IsHalted()  returns FALSE (0000ms, 0659ms total)
T0BC0 005:920 JLINK_ReadMemU32(0xE0001004, 0x0001 Items, ...) -- CPU is running -- CPU_ReadMem(4 bytes @ 0xE0001004) - Data: D8 64 E8 08  returns 0x01 (0000ms, 0659ms total)
T2210 005:920 JLINK_ReadMem (0x2000069C, 0x0020 Bytes, ...) -- CPU is running -- CPU_ReadMem(32 bytes @ 0x2000069C) - Data: 00 00 00 00 00 00 00 00 00 00 00 00 00 00 00 00 ...  returns 0x00 (0001ms, 0660ms total)
T2210 005:921 JLINK_ReadMem (0x20000AAC, 0x0020 Bytes, ...) -- CPU is running -- CPU_ReadMem(32 bytes @ 0x20000AAC) - Data: 00 00 00 00 00 00 00 00 00 00 00 00 00 00 00 00 ...  returns 0x00 (0001ms, 0661ms total)
T2210 005:922 JLINK_ReadMem (0x40000000, 0x0010 Bytes, ...) -- CPU is running -- CPU_ReadMem(16 bytes @ 0x40000000) - Data: 01 00 00 00 00 00 00 00 03 00 00 00 00 00 00 00  returns 0x00 (0000ms, 0661ms total)
T2210 005:922 JLINK_ReadMem (0x40000010, 0x0004 Bytes, ...) -- CPU is running -- CPU_ReadMem(4 bytes @ 0x40000010) - Data: 00 00 00 00  returns 0x00 (0001ms, 0662ms total)
T2210 005:923 JLINK_ReadMem (0x40000018, 0x0014 Bytes, ...) -- CPU is running -- CPU_ReadMem(20 bytes @ 0x40000018) - Data: 01 01 00 00 00 00 00 00 00 00 00 00 10 27 00 00 ...  returns 0x00 (0000ms, 0662ms total)
T2210 005:923 JLINK_ReadMem (0x4000002C, 0x0004 Bytes, ...) -- CPU is running -- CPU_ReadMem(4 bytes @ 0x4000002C) - Data: FE FF 00 00  returns 0x00 (0000ms, 0662ms total)
T2210 005:923 JLINK_ReadMem (0x40000034, 0x000C Bytes, ...) -- CPU is running -- CPU_ReadMem(12 bytes @ 0x40000034) - Data: 00 00 00 00 00 00 00 00 00 00 00 00  returns 0x00 (0001ms, 0663ms total)
T2210 005:924 JLINK_ReadMem (0x40000040, 0x0004 Bytes, ...) -- CPU is running -- CPU_ReadMem(4 bytes @ 0x40000040) - Data: 00 00 00 00  returns 0x00 (0000ms, 0663ms total)
T2210 005:924 JLINK_ReadMem (0x40000048, 0x0004 Bytes, ...) -- CPU is running -- CPU_ReadMem(4 bytes @ 0x40000048) - Data: 00 00 00 00  returns 0x00 (0001ms, 0664ms total)
T2210 005:925 JLINK_ReadMem (0x4000004C, 0x0004 Bytes, ...) -- CPU is running -- CPU_ReadMem(4 bytes @ 0x4000004C) - Data: 01 00 00 00  returns 0x00 (0000ms, 0664ms total)
T0BC0 005:926 JLINK_IsHalted()  returns FALSE (0001ms, 0665ms total)
T0BC0 006:027 JLINK_IsHalted()  returns FALSE (0000ms, 0664ms total)
T0BC0 006:128 JLINK_IsHalted()  returns FALSE (0000ms, 0664ms total)
T0BC0 006:230 JLINK_IsHalted()  returns FALSE (0000ms, 0664ms total)
T0BC0 006:331 JLINK_IsHalted()  returns FALSE (0000ms, 0664ms total)
T0BC0 006:432 JLINK_ReadMemU32(0xE0001004, 0x0001 Items, ...) -- CPU is running -- CPU_ReadMem(4 bytes @ 0xE0001004) - Data: F6 B9 1A 0B  returns 0x01 (0000ms, 0664ms total)
T2210 006:432 JLINK_ReadMem (0x2000069C, 0x0020 Bytes, ...) -- CPU is running -- CPU_ReadMem(32 bytes @ 0x2000069C) - Data: 00 00 00 00 00 00 00 00 00 00 00 00 00 00 00 00 ...  returns 0x00 (0001ms, 0665ms total)
T2210 006:433 JLINK_ReadMem (0x20000AAC, 0x0020 Bytes, ...) -- CPU is running -- CPU_ReadMem(32 bytes @ 0x20000AAC) - Data: 00 00 00 00 00 00 00 00 00 00 00 00 00 00 00 00 ...  returns 0x00 (0000ms, 0665ms total)
T2210 006:433 JLINK_ReadMem (0x40000000, 0x0010 Bytes, ...) -- CPU is running -- CPU_ReadMem(16 bytes @ 0x40000000) - Data: 01 00 00 00 00 00 00 00 03 00 00 00 00 00 00 00  returns 0x00 (0001ms, 0666ms total)
T2210 006:434 JLINK_ReadMem (0x40000010, 0x0004 Bytes, ...) -- CPU is running -- CPU_ReadMem(4 bytes @ 0x40000010) - Data: 00 00 00 00  returns 0x00 (0000ms, 0666ms total)
T2210 006:434 JLINK_ReadMem (0x40000018, 0x0014 Bytes, ...) -- CPU is running -- CPU_ReadMem(20 bytes @ 0x40000018) - Data: 01 01 00 00 00 00 00 00 00 00 00 00 10 27 00 00 ...  returns 0x00 (0001ms, 0667ms total)
T2210 006:435 JLINK_ReadMem (0x4000002C, 0x0004 Bytes, ...) -- CPU is running -- CPU_ReadMem(4 bytes @ 0x4000002C) - Data: FE FF 00 00  returns 0x00 (0000ms, 0667ms total)
T2210 006:435 JLINK_ReadMem (0x40000034, 0x000C Bytes, ...) -- CPU is running -- CPU_ReadMem(12 bytes @ 0x40000034) - Data: 00 00 00 00 00 00 00 00 00 00 00 00  returns 0x00 (0001ms, 0668ms total)
T2210 006:436 JLINK_ReadMem (0x40000040, 0x0004 Bytes, ...) -- CPU is running -- CPU_ReadMem(4 bytes @ 0x40000040) - Data: 00 00 00 00  returns 0x00 (0000ms, 0668ms total)
T2210 006:436 JLINK_ReadMem (0x40000048, 0x0004 Bytes, ...) -- CPU is running -- CPU_ReadMem(4 bytes @ 0x40000048) - Data: 00 00 00 00  returns 0x00 (0001ms, 0669ms total)
T2210 006:437 JLINK_ReadMem (0x4000004C, 0x0004 Bytes, ...) -- CPU is running -- CPU_ReadMem(4 bytes @ 0x4000004C) - Data: 01 00 00 00  returns 0x00 (0000ms, 0669ms total)
T0BC0 006:437 JLINK_IsHalted()  returns FALSE (0001ms, 0670ms total)
T2210 006:531 JLINK_SetBPEx(Addr = 0x08001B94, Type = 0xFFFFFFF2) -- CPU is running -- CPU is running -- CPU_WriteMem(4 bytes @ 0xE0002000) -- CPU is running -- CPU_WriteMem(4 bytes @ 0xE0002008)  returns 0x00000002 (0000ms, 0669ms total)
T0BC0 006:539 JLINK_IsHalted()  returns FALSE (0000ms, 0669ms total)
T0BC0 006:640 JLINK_IsHalted()  returns TRUE (0002ms, 0671ms total)
T0BC0 006:642 JLINK_Halt()  returns 0x00 (0000ms, 0669ms total)
T0BC0 006:642 JLINK_IsHalted()  returns TRUE (0000ms, 0669ms total)
T0BC0 006:642 JLINK_IsHalted()  returns TRUE (0000ms, 0669ms total)
T0BC0 006:642 JLINK_IsHalted()  returns TRUE (0000ms, 0669ms total)
T0BC0 006:642 JLINK_ReadReg(R15 (PC))  returns 0x08001B94 (0000ms, 0669ms total)
T0BC0 006:642 JLINK_ReadReg(XPSR)  returns 0x21000000 (0000ms, 0669ms total)
T0BC0 006:642 JLINK_ClrBPEx(BPHandle = 0x00000002)  returns 0x00 (0000ms, 0669ms total)
T0BC0 006:643 JLINK_ReadMemU32(0xE000ED30, 0x0001 Items, ...) -- CPU_ReadMem(4 bytes @ 0xE000ED30) - Data: 02 00 00 00  returns 0x01 (0000ms, 0670ms total)
T0BC0 006:643 JLINK_ReadMemU32(0xE0001028, 0x0001 Items, ...) -- CPU_ReadMem(4 bytes @ 0xE0001028) - Data: 00 00 00 00  returns 0x01 (0001ms, 0671ms total)
T0BC0 006:644 JLINK_ReadMemU32(0xE0001038, 0x0001 Items, ...) -- CPU_ReadMem(4 bytes @ 0xE0001038) - Data: 00 02 00 00  returns 0x01 (0000ms, 0671ms total)
T0BC0 006:644 JLINK_ReadMemU32(0xE0001048, 0x0001 Items, ...) -- CPU_ReadMem(4 bytes @ 0xE0001048) - Data: 00 00 00 00  returns 0x01 (0001ms, 0672ms total)
T0BC0 006:645 JLINK_ReadMemU32(0xE0001058, 0x0001 Items, ...) -- CPU_ReadMem(4 bytes @ 0xE0001058) - Data: 00 00 00 00  returns 0x01 (0000ms, 0672ms total)
T0BC0 006:645 JLINK_ReadReg(R0)  returns 0x0000042F (0000ms, 0672ms total)
T0BC0 006:645 JLINK_ReadReg(R1)  returns 0x0000042F (0000ms, 0672ms total)
T0BC0 006:645 JLINK_ReadReg(R2)  returns 0x0000042F (0000ms, 0672ms total)
T0BC0 006:645 JLINK_ReadReg(R3)  returns 0x0018B820 (0000ms, 0672ms total)
T0BC0 006:645 JLINK_ReadReg(R4)  returns 0x000000A2 (0000ms, 0672ms total)
T0BC0 006:645 JLINK_ReadReg(R5)  returns 0x00002710 (0000ms, 0672ms total)
T0BC0 006:645 JLINK_ReadReg(R6)  returns 0x00000000 (0000ms, 0672ms total)
T0BC0 006:645 JLINK_ReadReg(R7)  returns 0x00000000 (0000ms, 0672ms total)
T0BC0 006:645 JLINK_ReadReg(R8)  returns 0x00000000 (0000ms, 0672ms total)
T0BC0 006:645 JLINK_ReadReg(R9)  returns 0x20000160 (0000ms, 0672ms total)
T0BC0 006:645 JLINK_ReadReg(R10)  returns 0x08002D38 (0000ms, 0672ms total)
T0BC0 006:645 JLINK_ReadReg(R11)  returns 0x00000000 (0000ms, 0672ms total)
T0BC0 006:645 JLINK_ReadReg(R12)  returns 0x00000000 (0000ms, 0672ms total)
T0BC0 006:645 JLINK_ReadReg(R13 (SP))  returns 0x20002DC8 (0000ms, 0672ms total)
T0BC0 006:645 JLINK_ReadReg(R14)  returns 0x080023B3 (0000ms, 0672ms total)
T0BC0 006:645 JLINK_ReadReg(R15 (PC))  returns 0x08001B94 (0000ms, 0672ms total)
T0BC0 006:645 JLINK_ReadReg(XPSR)  returns 0x21000000 (0000ms, 0672ms total)
T0BC0 006:645 JLINK_ReadReg(MSP)  returns 0x20002DC8 (0000ms, 0672ms total)
T0BC0 006:645 JLINK_ReadReg(PSP)  returns 0x20001000 (0000ms, 0672ms total)
T0BC0 006:645 JLINK_ReadReg(CFBP)  returns 0x00000000 (0001ms, 0673ms total)
T2210 006:646 JLINK_ReadMem (0x20002DE4, 0x0004 Bytes, ...) -- CPU_ReadMem(64 bytes @ 0x20002DC0) -- Updating C cache (64 bytes @ 0x20002DC0) -- Read from C cache (4 bytes @ 0x20002DE4) - Data: B3 23 00 08  returns 0x00 (0001ms, 0674ms total)
T2210 006:647 JLINK_ReadMem (0x20002DDC, 0x0004 Bytes, ...) -- Read from C cache (4 bytes @ 0x20002DDC) - Data: 26 00 00 00  returns 0x00 (0000ms, 0674ms total)
T2210 006:647 JLINK_ReadMem (0x20002DE0, 0x0004 Bytes, ...) -- Read from C cache (4 bytes @ 0x20002DE0) - Data: 00 00 00 00  returns 0x00 (0000ms, 0674ms total)
T2210 006:647 JLINK_ReadMem (0x20002DEC, 0x0004 Bytes, ...) -- Read from C cache (4 bytes @ 0x20002DEC) - Data: BB 01 00 08  returns 0x00 (0000ms, 0674ms total)
T2210 006:647 JLINK_ReadMem (0x00000000, 0x0004 Bytes, ...) -- CPU_ReadMem(4 bytes @ 0x00000004) -- CPU_ReadMem(64 bytes @ 0x08000000) -- Updating C cache (64 bytes @ 0x08000000) -- Read from C cache (4 bytes @ 0x08000000) - Data: F0 2D 00 20  returns 0x00 (0001ms, 0675ms total)
T2210 006:651 JLINK_ReadMem (0x2000069C, 0x0020 Bytes, ...) -- CPU_ReadMem(64 bytes @ 0x20000680) -- Updating C cache (64 bytes @ 0x20000680) -- Read from C cache (32 bytes @ 0x2000069C) - Data: 00 00 00 00 00 00 00 00 00 00 00 00 00 00 00 00 ...  returns 0x00 (0001ms, 0676ms total)
T2210 006:652 JLINK_ReadMem (0x20000AAC, 0x0020 Bytes, ...) -- CPU_ReadMem(128 bytes @ 0x20000A80) -- Updating C cache (128 bytes @ 0x20000A80) -- Read from C cache (32 bytes @ 0x20000AAC) - Data: 00 00 00 00 00 00 00 00 00 00 00 00 00 00 00 00 ...  returns 0x00 (0001ms, 0677ms total)
T2210 006:653 JLINK_ReadMem (0x40000000, 0x0010 Bytes, ...) -- CPU_ReadMem(16 bytes @ 0x40000000) - Data: 01 00 00 00 00 00 00 00 03 00 00 00 00 00 00 00  returns 0x00 (0000ms, 0677ms total)
T2210 006:653 JLINK_ReadMem (0x40000010, 0x0004 Bytes, ...) -- CPU_ReadMem(4 bytes @ 0x40000010) - Data: 00 00 00 00  returns 0x00 (0001ms, 0678ms total)
T2210 006:654 JLINK_ReadMem (0x40000018, 0x0014 Bytes, ...) -- CPU_ReadMem(20 bytes @ 0x40000018) - Data: 01 01 00 00 00 00 00 00 00 00 00 00 10 27 00 00 ...  returns 0x00 (0000ms, 0678ms total)
T2210 006:654 JLINK_ReadMem (0x4000002C, 0x0004 Bytes, ...) -- CPU_ReadMem(4 bytes @ 0x4000002C) - Data: FE FF 00 00  returns 0x00 (0001ms, 0679ms total)
T2210 006:655 JLINK_ReadMem (0x40000034, 0x000C Bytes, ...) -- CPU_ReadMem(12 bytes @ 0x40000034) - Data: 00 00 00 00 00 00 00 00 00 00 00 00  returns 0x00 (0000ms, 0679ms total)
T2210 006:655 JLINK_ReadMem (0x40000040, 0x0004 Bytes, ...) -- CPU_ReadMem(4 bytes @ 0x40000040) - Data: 00 00 00 00  returns 0x00 (0000ms, 0679ms total)
T2210 006:655 JLINK_ReadMem (0x40000048, 0x0004 Bytes, ...) -- CPU_ReadMem(4 bytes @ 0x40000048) - Data: 00 00 00 00  returns 0x00 (0001ms, 0680ms total)
T2210 006:656 JLINK_ReadMem (0x4000004C, 0x0004 Bytes, ...) -- CPU_ReadMem(4 bytes @ 0x4000004C) - Data: 01 00 00 00  returns 0x00 (0000ms, 0680ms total)
T2210 006:660 JLINK_ReadMem (0x08001B94, 0x003C Bytes, ...) -- CPU_ReadMem(128 bytes @ 0x08001B80) -- Updating C cache (128 bytes @ 0x08001B80) -- Read from C cache (60 bytes @ 0x08001B94) - Data: 08 4C 1C 1B 40 F6 0B 75 B4 FB F5 F4 04 EB 84 04 ...  returns 0x00 (0001ms, 0681ms total)
T0BC0 010:804 JLINK_Go() -- CPU_ReadMem(4 bytes @ 0xE0001000) -- CPU_WriteMem(4 bytes @ 0xE0002008) (0002ms, 0683ms total)
T0BC0 010:907 JLINK_IsHalted()  returns FALSE (0000ms, 0683ms total)
T0BC0 011:008 JLINK_IsHalted()  returns FALSE (0000ms, 0683ms total)
T0BC0 011:109 JLINK_IsHalted()  returns FALSE (0000ms, 0683ms total)
T0BC0 011:210 JLINK_IsHalted()  returns FALSE (0000ms, 0683ms total)
T0BC0 011:311 JLINK_IsHalted()  returns FALSE (0000ms, 0683ms total)
T0BC0 011:412 JLINK_ReadMemU32(0xE0001004, 0x0001 Items, ...) -- CPU is running -- CPU_ReadMem(4 bytes @ 0xE0001004) - Data: 2A F9 30 0E  returns 0x01 (0000ms, 0683ms total)
T2210 011:412 JLINK_ReadMem (0x2000069C, 0x0020 Bytes, ...) -- CPU is running -- CPU_ReadMem(32 bytes @ 0x2000069C) - Data: 00 00 00 00 00 00 00 00 00 00 00 00 00 00 00 00 ...  returns 0x00 (0001ms, 0684ms total)
T2210 011:413 JLINK_ReadMem (0x20000AAC, 0x0020 Bytes, ...) -- CPU is running -- CPU_ReadMem(32 bytes @ 0x20000AAC) - Data: 00 00 00 00 00 00 00 00 00 00 00 00 00 00 00 00 ...  returns 0x00 (0000ms, 0684ms total)
T2210 011:413 JLINK_ReadMem (0x40000000, 0x0010 Bytes, ...) -- CPU is running -- CPU_ReadMem(16 bytes @ 0x40000000) - Data: 01 00 00 00 00 00 00 00 03 00 00 00 00 00 00 00  returns 0x00 (0001ms, 0685ms total)
T2210 011:414 JLINK_ReadMem (0x40000010, 0x0004 Bytes, ...) -- CPU is running -- CPU_ReadMem(4 bytes @ 0x40000010) - Data: 00 00 00 00  returns 0x00 (0000ms, 0685ms total)
T2210 011:414 JLINK_ReadMem (0x40000018, 0x0014 Bytes, ...) -- CPU is running -- CPU_ReadMem(20 bytes @ 0x40000018) - Data: 01 01 00 00 00 00 00 00 00 00 00 00 10 27 00 00 ...  returns 0x00 (0001ms, 0686ms total)
T2210 011:415 JLINK_ReadMem (0x4000002C, 0x0004 Bytes, ...) -- CPU is running -- CPU_ReadMem(4 bytes @ 0x4000002C) - Data: FE FF 00 00  returns 0x00 (0000ms, 0686ms total)
T2210 011:415 JLINK_ReadMem (0x40000034, 0x000C Bytes, ...) -- CPU is running -- CPU_ReadMem(12 bytes @ 0x40000034) - Data: 00 00 00 00 00 00 00 00 00 00 00 00  returns 0x00 (0001ms, 0687ms total)
T2210 011:416 JLINK_ReadMem (0x40000040, 0x0004 Bytes, ...) -- CPU is running -- CPU_ReadMem(4 bytes @ 0x40000040) - Data: 00 00 00 00  returns 0x00 (0000ms, 0687ms total)
T2210 011:416 JLINK_ReadMem (0x40000048, 0x0004 Bytes, ...) -- CPU is running -- CPU_ReadMem(4 bytes @ 0x40000048) - Data: 00 00 00 00  returns 0x00 (0001ms, 0688ms total)
T2210 011:417 JLINK_ReadMem (0x4000004C, 0x0004 Bytes, ...) -- CPU is running -- CPU_ReadMem(4 bytes @ 0x4000004C) - Data: 01 00 00 00  returns 0x00 (0000ms, 0688ms total)
T0BC0 011:418 JLINK_IsHalted()  returns FALSE (0000ms, 0688ms total)
T2210 011:442 JLINK_ReadMem (0x20002DD0, 0x0004 Bytes, ...) -- CPU is running -- CPU_ReadMem(4 bytes @ 0x20002DD0) - Data: F0 01 00 00  returns 0x00 (0001ms, 0689ms total)
T0BC0 011:520 JLINK_IsHalted()  returns FALSE (0000ms, 0689ms total)
T0BC0 011:621 JLINK_IsHalted()  returns FALSE (0000ms, 0689ms total)
T0BC0 011:722 JLINK_IsHalted()  returns FALSE (0000ms, 0689ms total)
T2210 011:787 JLINK_ReadMem (0x20002DD0, 0x0004 Bytes, ...) -- CPU is running -- CPU_ReadMem(4 bytes @ 0x20002DD0) - Data: 48 00 00 00  returns 0x00 (0000ms, 0689ms total)
T0BC0 011:823 JLINK_IsHalted()  returns FALSE (0000ms, 0689ms total)
T0BC0 011:925 JLINK_IsHalted()  returns FALSE (0000ms, 0689ms total)
T0BC0 012:025 JLINK_ReadMemU32(0xE0001004, 0x0001 Items, ...) -- CPU is running -- CPU_ReadMem(4 bytes @ 0xE0001004) - Data: FC BA D2 10  returns 0x01 (0000ms, 0689ms total)
T2210 012:025 JLINK_ReadMem (0x2000069C, 0x0020 Bytes, ...) -- CPU is running -- CPU_ReadMem(32 bytes @ 0x2000069C) - Data: 00 00 00 00 00 00 00 00 00 00 00 00 00 00 00 00 ...  returns 0x00 (0001ms, 0690ms total)
T2210 012:026 JLINK_ReadMem (0x20000AAC, 0x0020 Bytes, ...) -- CPU is running -- CPU_ReadMem(32 bytes @ 0x20000AAC) - Data: 00 00 00 00 00 00 00 00 00 00 00 00 00 00 00 00 ...  returns 0x00 (0000ms, 0690ms total)
T2210 012:026 JLINK_ReadMem (0x40000000, 0x0010 Bytes, ...) -- CPU is running -- CPU_ReadMem(16 bytes @ 0x40000000) - Data: 01 00 00 00 00 00 00 00 03 00 00 00 00 00 00 00  returns 0x00 (0001ms, 0691ms total)
T2210 012:027 JLINK_ReadMem (0x40000010, 0x0004 Bytes, ...) -- CPU is running -- CPU_ReadMem(4 bytes @ 0x40000010) - Data: 00 00 00 00  returns 0x00 (0000ms, 0691ms total)
T2210 012:027 JLINK_ReadMem (0x40000018, 0x0014 Bytes, ...) -- CPU is running -- CPU_ReadMem(20 bytes @ 0x40000018) - Data: 01 01 00 00 00 00 00 00 00 00 00 00 10 27 00 00 ...  returns 0x00 (0001ms, 0692ms total)
T2210 012:028 JLINK_ReadMem (0x4000002C, 0x0004 Bytes, ...) -- CPU is running -- CPU_ReadMem(4 bytes @ 0x4000002C) - Data: FE FF 00 00  returns 0x00 (0000ms, 0692ms total)
T2210 012:028 JLINK_ReadMem (0x40000034, 0x000C Bytes, ...) -- CPU is running -- CPU_ReadMem(12 bytes @ 0x40000034) - Data: 00 00 00 00 00 00 00 00 00 00 00 00  returns 0x00 (0001ms, 0693ms total)
T2210 012:029 JLINK_ReadMem (0x40000040, 0x0004 Bytes, ...) -- CPU is running -- CPU_ReadMem(4 bytes @ 0x40000040) - Data: 00 00 00 00  returns 0x00 (0000ms, 0693ms total)
T2210 012:029 JLINK_ReadMem (0x40000048, 0x0004 Bytes, ...) -- CPU is running -- CPU_ReadMem(4 bytes @ 0x40000048) - Data: 00 00 00 00  returns 0x00 (0001ms, 0694ms total)
T2210 012:030 JLINK_ReadMem (0x4000004C, 0x0004 Bytes, ...) -- CPU is running -- CPU_ReadMem(4 bytes @ 0x4000004C) - Data: 01 00 00 00  returns 0x00 (0000ms, 0694ms total)
T0BC0 012:031 JLINK_IsHalted()  returns FALSE (0000ms, 0694ms total)
T0BC0 012:132 JLINK_IsHalted()  returns FALSE (0000ms, 0694ms total)
T0BC0 012:233 JLINK_IsHalted()  returns FALSE (0000ms, 0694ms total)
T0BC0 012:334 JLINK_IsHalted()  returns FALSE (0000ms, 0694ms total)
T0BC0 012:435 JLINK_IsHalted()  returns FALSE (0000ms, 0694ms total)
T0BC0 012:536 JLINK_ReadMemU32(0xE0001004, 0x0001 Items, ...) -- CPU is running -- CPU_ReadMem(4 bytes @ 0xE0001004) - Data: 5F E3 03 13  returns 0x01 (0000ms, 0694ms total)
T2210 012:536 JLINK_ReadMem (0x2000069C, 0x0020 Bytes, ...) -- CPU is running -- CPU_ReadMem(32 bytes @ 0x2000069C) - Data: 00 00 00 00 00 00 00 00 00 00 00 00 00 00 00 00 ...  returns 0x00 (0001ms, 0695ms total)
T2210 012:537 JLINK_ReadMem (0x20000AAC, 0x0020 Bytes, ...) -- CPU is running -- CPU_ReadMem(32 bytes @ 0x20000AAC) - Data: 00 00 00 00 00 00 00 00 00 00 00 00 00 00 00 00 ...  returns 0x00 (0001ms, 0696ms total)
T2210 012:538 JLINK_ReadMem (0x40000000, 0x0010 Bytes, ...) -- CPU is running -- CPU_ReadMem(16 bytes @ 0x40000000) - Data: 01 00 00 00 00 00 00 00 03 00 00 00 00 00 00 00  returns 0x00 (0000ms, 0696ms total)
T2210 012:538 JLINK_ReadMem (0x40000010, 0x0004 Bytes, ...) -- CPU is running -- CPU_ReadMem(4 bytes @ 0x40000010) - Data: 00 00 00 00  returns 0x00 (0001ms, 0697ms total)
T2210 012:539 JLINK_ReadMem (0x40000018, 0x0014 Bytes, ...) -- CPU is running -- CPU_ReadMem(20 bytes @ 0x40000018) - Data: 01 01 00 00 00 00 00 00 00 00 00 00 10 27 00 00 ...  returns 0x00 (0000ms, 0697ms total)
T2210 012:539 JLINK_ReadMem (0x4000002C, 0x0004 Bytes, ...) -- CPU is running -- CPU_ReadMem(4 bytes @ 0x4000002C) - Data: FE FF 00 00  returns 0x00 (0001ms, 0698ms total)
T2210 012:540 JLINK_ReadMem (0x40000034, 0x000C Bytes, ...) -- CPU is running -- CPU_ReadMem(12 bytes @ 0x40000034) - Data: 00 00 00 00 00 00 00 00 00 00 00 00  returns 0x00 (0000ms, 0698ms total)
T2210 012:540 JLINK_ReadMem (0x40000040, 0x0004 Bytes, ...) -- CPU is running -- CPU_ReadMem(4 bytes @ 0x40000040) - Data: 00 00 00 00  returns 0x00 (0001ms, 0699ms total)
T2210 012:541 JLINK_ReadMem (0x40000048, 0x0004 Bytes, ...) -- CPU is running -- CPU_ReadMem(4 bytes @ 0x40000048) - Data: 00 00 00 00  returns 0x00 (0000ms, 0699ms total)
T2210 012:541 JLINK_ReadMem (0x4000004C, 0x0004 Bytes, ...) -- CPU is running -- CPU_ReadMem(4 bytes @ 0x4000004C) - Data: 01 00 00 00  returns 0x00 (0001ms, 0700ms total)
T0BC0 012:542 JLINK_IsHalted()  returns FALSE (0000ms, 0700ms total)
T0BC0 012:644 JLINK_IsHalted()  returns FALSE (0000ms, 0700ms total)
T0BC0 012:745 JLINK_IsHalted()  returns FALSE (0000ms, 0700ms total)
T0BC0 012:845 JLINK_IsHalted()  returns FALSE (0000ms, 0700ms total)
T0BC0 012:947 JLINK_IsHalted()  returns FALSE (0000ms, 0700ms total)
T0BC0 013:048 JLINK_IsHalted()  returns FALSE (0000ms, 0700ms total)
T0BC0 013:149 JLINK_ReadMemU32(0xE0001004, 0x0001 Items, ...) -- CPU is running -- CPU_ReadMem(4 bytes @ 0xE0001004) - Data: E1 1A A5 15  returns 0x01 (0000ms, 0700ms total)
T2210 013:149 JLINK_ReadMem (0x2000069C, 0x0020 Bytes, ...) -- CPU is running -- CPU_ReadMem(32 bytes @ 0x2000069C) - Data: 00 00 00 00 00 00 00 00 00 00 00 00 00 00 00 00 ...  returns 0x00 (0001ms, 0701ms total)
T2210 013:150 JLINK_ReadMem (0x20000AAC, 0x0020 Bytes, ...) -- CPU is running -- CPU_ReadMem(32 bytes @ 0x20000AAC) - Data: 00 00 00 00 00 00 00 00 00 00 00 00 00 00 00 00 ...  returns 0x00 (0001ms, 0702ms total)
T2210 013:151 JLINK_ReadMem (0x40000000, 0x0010 Bytes, ...) -- CPU is running -- CPU_ReadMem(16 bytes @ 0x40000000) - Data: 01 00 00 00 00 00 00 00 03 00 00 00 00 00 00 00  returns 0x00 (0000ms, 0702ms total)
T2210 013:151 JLINK_ReadMem (0x40000010, 0x0004 Bytes, ...) -- CPU is running -- CPU_ReadMem(4 bytes @ 0x40000010) - Data: 00 00 00 00  returns 0x00 (0001ms, 0703ms total)
T2210 013:152 JLINK_ReadMem (0x40000018, 0x0014 Bytes, ...) -- CPU is running -- CPU_ReadMem(20 bytes @ 0x40000018) - Data: 01 01 00 00 00 00 00 00 00 00 00 00 10 27 00 00 ...  returns 0x00 (0000ms, 0703ms total)
T2210 013:152 JLINK_ReadMem (0x4000002C, 0x0004 Bytes, ...) -- CPU is running -- CPU_ReadMem(4 bytes @ 0x4000002C) - Data: FE FF 00 00  returns 0x00 (0001ms, 0704ms total)
T2210 013:153 JLINK_ReadMem (0x40000034, 0x000C Bytes, ...) -- CPU is running -- CPU_ReadMem(12 bytes @ 0x40000034) - Data: 00 00 00 00 00 00 00 00 00 00 00 00  returns 0x00 (0000ms, 0704ms total)
T2210 013:153 JLINK_ReadMem (0x40000040, 0x0004 Bytes, ...) -- CPU is running -- CPU_ReadMem(4 bytes @ 0x40000040) - Data: 00 00 00 00  returns 0x00 (0001ms, 0705ms total)
T2210 013:154 JLINK_ReadMem (0x40000048, 0x0004 Bytes, ...) -- CPU is running -- CPU_ReadMem(4 bytes @ 0x40000048) - Data: 00 00 00 00  returns 0x00 (0000ms, 0705ms total)
T2210 013:154 JLINK_ReadMem (0x4000004C, 0x0004 Bytes, ...) -- CPU is running -- CPU_ReadMem(4 bytes @ 0x4000004C) - Data: 01 00 00 00  returns 0x00 (0001ms, 0706ms total)
T0BC0 013:155 JLINK_IsHalted()  returns FALSE (0001ms, 0707ms total)
T0BC0 013:257 JLINK_IsHalted()  returns FALSE (0000ms, 0706ms total)
T0BC0 013:358 JLINK_IsHalted()  returns FALSE (0000ms, 0706ms total)
T0BC0 013:460 JLINK_IsHalted()  returns FALSE (0000ms, 0706ms total)
T0BC0 013:561 JLINK_IsHalted()  returns FALSE (0000ms, 0706ms total)
T0BC0 013:661 JLINK_ReadMemU32(0xE0001004, 0x0001 Items, ...) -- CPU is running -- CPU_ReadMem(4 bytes @ 0xE0001004) - Data: F0 09 D8 17  returns 0x01 (0000ms, 0706ms total)
T2210 013:661 JLINK_ReadMem (0x2000069C, 0x0020 Bytes, ...) -- CPU is running -- CPU_ReadMem(32 bytes @ 0x2000069C) - Data: 00 00 00 00 00 00 00 00 00 00 00 00 00 00 00 00 ...  returns 0x00 (0001ms, 0707ms total)
T2210 013:662 JLINK_ReadMem (0x20000AAC, 0x0020 Bytes, ...) -- CPU is running -- CPU_ReadMem(32 bytes @ 0x20000AAC) - Data: 00 00 00 00 00 00 00 00 00 00 00 00 00 00 00 00 ...  returns 0x00 (0001ms, 0708ms total)
T2210 013:663 JLINK_ReadMem (0x40000000, 0x0010 Bytes, ...) -- CPU is running -- CPU_ReadMem(16 bytes @ 0x40000000) - Data: 01 00 00 00 00 00 00 00 03 00 00 00 00 00 00 00  returns 0x00 (0000ms, 0708ms total)
T2210 013:663 JLINK_ReadMem (0x40000010, 0x0004 Bytes, ...) -- CPU is running -- CPU_ReadMem(4 bytes @ 0x40000010) - Data: 00 00 00 00  returns 0x00 (0001ms, 0709ms total)
T2210 013:664 JLINK_ReadMem (0x40000018, 0x0014 Bytes, ...) -- CPU is running -- CPU_ReadMem(20 bytes @ 0x40000018) - Data: 01 01 00 00 00 00 00 00 00 00 00 00 10 27 00 00 ...  returns 0x00 (0000ms, 0709ms total)
T2210 013:664 JLINK_ReadMem (0x4000002C, 0x0004 Bytes, ...) -- CPU is running -- CPU_ReadMem(4 bytes @ 0x4000002C) - Data: FE FF 00 00  returns 0x00 (0001ms, 0710ms total)
T2210 013:665 JLINK_ReadMem (0x40000034, 0x000C Bytes, ...) -- CPU is running -- CPU_ReadMem(12 bytes @ 0x40000034) - Data: 00 00 00 00 00 00 00 00 00 00 00 00  returns 0x00 (0000ms, 0710ms total)
T2210 013:665 JLINK_ReadMem (0x40000040, 0x0004 Bytes, ...) -- CPU is running -- CPU_ReadMem(4 bytes @ 0x40000040) - Data: 00 00 00 00  returns 0x00 (0001ms, 0711ms total)
T2210 013:666 JLINK_ReadMem (0x40000048, 0x0004 Bytes, ...) -- CPU is running -- CPU_ReadMem(4 bytes @ 0x40000048) - Data: 00 00 00 00  returns 0x00 (0000ms, 0711ms total)
T2210 013:666 JLINK_ReadMem (0x4000004C, 0x0004 Bytes, ...) -- CPU is running -- CPU_ReadMem(4 bytes @ 0x4000004C) - Data: 01 00 00 00  returns 0x00 (0001ms, 0712ms total)
T0BC0 013:668 JLINK_IsHalted()  returns FALSE (0000ms, 0712ms total)
T0BC0 013:769 JLINK_IsHalted()  returns FALSE (0000ms, 0712ms total)
T0BC0 013:870 JLINK_IsHalted()  returns FALSE (0001ms, 0713ms total)
T0BC0 013:971 JLINK_IsHalted()  returns FALSE (0000ms, 0712ms total)
T0BC0 014:073 JLINK_IsHalted()  returns FALSE (0000ms, 0712ms total)
T0BC0 014:174 JLINK_IsHalted()  returns FALSE (0000ms, 0712ms total)
T0BC0 014:275 JLINK_ReadMemU32(0xE0001004, 0x0001 Items, ...) -- CPU is running -- CPU_ReadMem(4 bytes @ 0xE0001004) - Data: C5 F7 7A 1A  returns 0x01 (0001ms, 0713ms total)
